<Qucs Dataset 0.0.15>
<indep R1 20>
  +5.00000000000e+00
  +7.36842105263e+00
  +9.73684210526e+00
  +1.21052631579e+01
  +1.44736842105e+01
  +1.68421052632e+01
  +1.92105263158e+01
  +2.15789473684e+01
  +2.39473684211e+01
  +2.63157894737e+01
  +2.86842105263e+01
  +3.10526315789e+01
  +3.34210526316e+01
  +3.57894736842e+01
  +3.81578947368e+01
  +4.05263157895e+01
  +4.28947368421e+01
  +4.52631578947e+01
  +4.76315789474e+01
  +5.00000000000e+01
</indep>
<dep V1.I R1>
  -1.00000000000e-02
  -1.00000000000e-02
  -1.00000000000e-02
  -1.00000000000e-02
  -1.00000000000e-02
  -1.00000000000e-02
  -1.00000000000e-02
  -1.00000000000e-02
  -1.00000000000e-02
  -1.00000000000e-02
  -1.00000000000e-02
  -1.00000000000e-02
  -1.00000000000e-02
  -1.00000000000e-02
  -1.00000000000e-02
  -1.00000000000e-02
  -1.00000000000e-02
  -1.00000000000e-02
  -1.00000000000e-02
  -1.00000000000e-02
</dep>
<dep _net1.V R1>
  +5.00000000000e-01
  +5.00000000000e-01
  +5.00000000000e-01
  +5.00000000000e-01
  +5.00000000000e-01
  +5.00000000000e-01
  +5.00000000000e-01
  +5.00000000000e-01
  +5.00000000000e-01
  +5.00000000000e-01
  +5.00000000000e-01
  +5.00000000000e-01
  +5.00000000000e-01
  +5.00000000000e-01
  +5.00000000000e-01
  +5.00000000000e-01
  +5.00000000000e-01
  +5.00000000000e-01
  +5.00000000000e-01
  +5.00000000000e-01
</dep>
<dep _net0.V R1>
  +1.00000000000e+00
  +1.00000000000e+00
  +1.00000000000e+00
  +1.00000000000e+00
  +1.00000000000e+00
  +1.00000000000e+00
  +1.00000000000e+00
  +1.00000000000e+00
  +1.00000000000e+00
  +1.00000000000e+00
  +1.00000000000e+00
  +1.00000000000e+00
  +1.00000000000e+00
  +1.00000000000e+00
  +1.00000000000e+00
  +1.00000000000e+00
  +1.00000000000e+00
  +1.00000000000e+00
  +1.00000000000e+00
  +1.00000000000e+00
</dep>
